! Touchstone file exported from HFSS 2024.1.0
!        File:           /home/ubuntu/Ansoft/repo/patch_2_42GHz/sim_2_42GHz_2.aedt
!        Generated:      08:59:40 AM Nov 11, 2024
!        Design:         HFSSDesign1
!        Project:        sim_2_42GHz_2
!        Setup:          Setup1
!        Solution:       Sweep
!
! Variables:
!        R0 = 1000000ohm
!        pad = 45mm
!
# GHz S MA R 50.000000
! Terminal data exported
! Port[1] = u141_0711_201_1_pin_T1
1.8                            0.913538576401615 -37.4797121796803 
1.82                           0.909131144268682 -53.5816720610541 
1.84                           0.903942638669181 -70.1161280770594 
1.86                           0.897815606547649 -87.2005108551218 
1.88                           0.890595865383519 -104.962821363245 
1.9                            0.882157437400308 -123.532775358809 
1.92                           0.872444254867727 -143.026760683435 
1.94                           0.861528021821814 -163.524885990263 
1.96                           0.849668409335555 174.959395391183 
1.98                           0.837341097456958 152.511552722157 
2                              0.825185430661795 129.337509366563 
2.02                           0.813845208395063 105.757613782491 
2.04                           0.803745379616839 82.1627837375379 
2.06                           0.794915334234588 58.9417282482275 
2.08                           0.786955042482597 36.4071325337378 
2.1                            0.779140811225768 14.7495359522648 
2.12                           0.770581202362072 -5.97077381803564 
2.14                           0.760332707693309 -25.8036991887286 
2.16                           0.747439224644603 -44.8785097458507 
2.18                           0.730906358594645 -63.3755517518373 
2.2                            0.709637966966205 -81.5062434610398 
2.22                           0.68236091735106 -99.5015682625998 
2.24                           0.647563587194795 -117.60656724631 
2.26                           0.603486823550324 -136.077213754128 
2.28                           0.548240450588115 -155.175266341203 
2.3                            0.48017316821888 -175.155908468162 
2.32                           0.398666700893154 163.756014074939 
2.34                           0.305447056041994 141.394163385335 
2.36                           0.206119240976105 117.614366310845 
2.38                           0.110925304598483 91.6791091650432 
2.4                            0.0340768119469537 53.0159387099058 
2.42                           0.0279702276950054 -83.6326034941498 
2.44                           0.0617324076159004 -106.970146461062 
2.46                           0.103854720583269 -115.138701857316 
2.48                           0.165414517251268 -130.003193451578 
2.5                            0.236657375438034 -151.779796282053 
2.52                           0.306160821259536 -177.166405358548 
2.54                           0.368918907774131 155.650149960646 
2.56                           0.424945060528306 127.496714650138 
2.58                           0.476301114301316 98.8964632756069 
2.6                            0.524828750348488 70.3706149310241 
2.62                           0.570988917491898 42.4755252493752 
2.64                           0.613853967037927 15.7115749175323 
2.66                           0.651911696555241 -9.57639771296961 
2.68                           0.683968238655877 -33.2403069777802 
2.7                            0.709595186066374 -55.3083257170835 
2.72                           0.729076241647918 -75.9322301159311 
2.74                           0.743120509453977 -95.3318183545089 
2.76                           0.752585748570871 -113.75172276628 
2.78                           0.758308531960357 -131.433560669599 
2.8                            0.7610371403627  -148.600159175516 
