! Touchstone file exported from HFSS 2024.1.0
!        File:           /home/ubuntu/Ansoft/repo/patch_2_42GHz/sim_2_42GHz_2.aedt
!        Generated:      09:00:04 AM Nov 11, 2024
!        Design:         HFSSDesign1
!        Project:        sim_2_42GHz_2
!        Setup:          Setup1
!        Solution:       Sweep
!
! Variables:
!        R0 = 100ohm
!        pad = 45mm
!
# GHz S MA R 50.000000
! Terminal data exported
! Port[1] = u141_0711_201_1_pin_T1
1.8                            0.39644169839092 24.289896838412  
1.82                           0.386712941667193 13.9107374419028 
1.84                           0.376807890794707 3.78841227193453 
1.86                           0.366650320593486 -6.06623637285809 
1.88                           0.356197391679173 -15.6441850262614 
1.9                            0.345442620447991 -24.9380475422333 
1.92                           0.334416984839165 -33.9423561873624 
1.94                           0.32318763562629 -42.6544430255081 
1.96                           0.311853485418695 -51.0760272397104 
1.98                           0.300536841801215 -59.2155360547717 
2                              0.289370361392291 -67.0910373649518 
2.02                           0.27847906632175 -74.7334357186754 
2.04                           0.267958071033659 -82.1893150127766 
2.06                           0.257847953276784 -89.5226042282547 
2.08                           0.248111078649446 -96.8142657386011 
2.1                            0.238613085398865 -104.159592169177 
2.12                           0.229113592002213 -111.663422327118 
2.14                           0.21926879414169 -119.434384895854 
2.16                           0.208646487151329 -127.579749665121 
2.18                           0.196752271568411 -136.202369975425 
2.2                            0.183065357370219 -145.400675316406 
2.22                           0.167083974924431 -155.272233912797 
2.24                           0.148383616470778 -165.921910318724 
2.26                           0.126695224144201 -177.479016738773 
2.28                           0.102013434972528 169.858557519881 
2.3                            0.0747456267477072 155.672540516997 
2.32                           0.0459233296015445 138.570379046845 
2.34                           0.0178785920529697 108.475020044187 
2.36                           0.0135946936047032 -23.8204704150473 
2.38                           0.0347116142820921 -59.6808575997137 
2.4                            0.051380291034107 -76.3054838009362 
2.42                           0.0628970412930172 -88.713329860026 
2.44                           0.0705036206391194 -99.5817856050645 
2.46                           0.0738740047081369 -110.843236571939 
2.48                           0.0704551157215295 -123.00556199154 
2.5                            0.0580145665189507 -134.557630429905 
2.52                           0.037007038260968 -139.948749702222 
2.54                           0.0169036264432529 -101.073061742825 
2.56                           0.0373232773077096 -44.7220524342115 
2.58                           0.0738592130707816 -46.3970453887997 
2.6                            0.112165915137872 -56.6458732656771 
2.62                           0.149459852937186 -68.8136867702916 
2.64                           0.184298503246163 -81.5148641891985 
2.66                           0.215833491833796 -94.3423011069587 
2.68                           0.243610356386027 -107.178679623572 
2.7                            0.267451622208765 -120.018179945179 
2.72                           0.287377122611582 -132.905518657222 
2.74                           0.303553581499356 -145.910820368235 
2.76                           0.316268927134336 -159.1173992531  
2.78                           0.325926176109886 -172.614194634097 
2.8                            0.333050720790581 173.511042261748 
